Freq.	V(vo)
1.00000000000000e+03	(1.30338969284260e+01dB,-1.15526326177108e+01°)
1.00230523807790e+03	(1.30343671700456e+01dB,-1.15802653223004e+01°)
1.00461579027840e+03	(1.30348394380719e+01dB,-1.16079686944615e+01°)
1.00693166885180e+03	(1.30353137404715e+01dB,-1.16357429456693e+01°)
1.00925288607668e+03	(1.30357900852344e+01dB,-1.16635882882257e+01°)
1.01157945425990e+03	(1.30362684803738e+01dB,-1.16915049352632e+01°)
1.01391138573668e+03	(1.30367489339259e+01dB,-1.17194931007496e+01°)
1.01624869287070e+03	(1.30372314539502e+01dB,-1.17475529994917e+01°)
1.01859138805412e+03	(1.30377160485292e+01dB,-1.17756848471401e+01°)
1.02093948370768e+03	(1.30382027257683e+01dB,-1.18038888601935e+01°)
1.02329299228075e+03	(1.30386914937961e+01dB,-1.18321652560030e+01°)
1.02565192625141e+03	(1.30391823607642e+01dB,-1.18605142527766e+01°)
1.02801629812647e+03	(1.30396753348470e+01dB,-1.18889360695835e+01°)
1.03038612044162e+03	(1.30401704242418e+01dB,-1.19174309263590e+01°)
1.03276140576140e+03	(1.30406676371689e+01dB,-1.19459990439084e+01°)
1.03514216667934e+03	(1.30411669818711e+01dB,-1.19746406439120e+01°)
1.03752841581801e+03	(1.30416684666144e+01dB,-1.20033559489295e+01°)
1.03992016582906e+03	(1.30421720996871e+01dB,-1.20321451824048e+01°)
1.04231742939330e+03	(1.30426778894003e+01dB,-1.20610085686699e+01°)
1.04472021922080e+03	(1.30431858440878e+01dB,-1.20899463329507e+01°)
1.04712854805090e+03	(1.30436959721059e+01dB,-1.21189587013705e+01°)
1.04954242865232e+03	(1.30442082818333e+01dB,-1.21480459009557e+01°)
1.05196187382322e+03	(1.30447227816712e+01dB,-1.21772081596398e+01°)
1.05438689639126e+03	(1.30452394800432e+01dB,-1.22064457062685e+01°)
1.05681750921366e+03	(1.30457583853953e+01dB,-1.22357587706045e+01°)
1.05925372517729e+03	(1.30462795061955e+01dB,-1.22651475833322e+01°)
1.06169555719872e+03	(1.30468028509343e+01dB,-1.22946123760627e+01°)
1.06414301822431e+03	(1.30473284281240e+01dB,-1.23241533813386e+01°)
1.06659612123026e+03	(1.30478562462993e+01dB,-1.23537708326387e+01°)
1.06905487922266e+03	(1.30483863140166e+01dB,-1.23834649643833e+01°)
1.07151930523761e+03	(1.30489186398543e+01dB,-1.24132360119391e+01°)
1.07398941234124e+03	(1.30494532324127e+01dB,-1.24430842116240e+01°)
1.07646521362983e+03	(1.30499901003137e+01dB,-1.24730098007122e+01°)
1.07894672222983e+03	(1.30505292522009e+01dB,-1.25030130174394e+01°)
1.08143395129794e+03	(1.30510706967397e+01dB,-1.25330941010078e+01°)
1.08392691402120e+03	(1.30516144426167e+01dB,-1.25632532915912e+01°)
1.08642562361706e+03	(1.30521604985400e+01dB,-1.25934908303404e+01°)
1.08893009333343e+03	(1.30527088732393e+01dB,-1.26238069593878e+01°)
1.09144033644875e+03	(1.30532595754651e+01dB,-1.26542019218533e+01°)
1.09395636627209e+03	(1.30538126139893e+01dB,-1.26846759618491e+01°)
1.09647819614318e+03	(1.30543679976049e+01dB,-1.27152293244852e+01°)
1.09900583943252e+03	(1.30549257351255e+01dB,-1.27458622558748e+01°)
1.10153930954141e+03	(1.30554858353859e+01dB,-1.27765750031393e+01°)
1.10407861990207e+03	(1.30560483072416e+01dB,-1.28073678144140e+01°)
1.10662378397766e+03	(1.30566131595684e+01dB,-1.28382409388534e+01°)
1.10917481526240e+03	(1.30571804012630e+01dB,-1.28691946266367e+01°)
1.11173172728159e+03	(1.30577500412423e+01dB,-1.29002291289731e+01°)
1.11429453359173e+03	(1.30583220884436e+01dB,-1.29313446981078e+01°)
1.11686324778056e+03	(1.30588965518242e+01dB,-1.29625415873267e+01°)
1.11943788346715e+03	(1.30594734403616e+01dB,-1.29938200509631e+01°)
1.12201845430196e+03	(1.30600527630533e+01dB,-1.30251803444023e+01°)
1.12460497396692e+03	(1.30606345289163e+01dB,-1.30566227240879e+01°)
1.12719745617551e+03	(1.30612187469877e+01dB,-1.30881474475271e+01°)
1.12979591467279e+03	(1.30618054263237e+01dB,-1.31197547732969e+01°)
1.13240036323555e+03	(1.30623945760003e+01dB,-1.31514449610491e+01°)
1.13501081567231e+03	(1.30629862051125e+01dB,-1.31832182715170e+01°)
1.13762728582343e+03	(1.30635803227745e+01dB,-1.32150749665206e+01°)
1.14024978756117e+03	(1.30641769381195e+01dB,-1.32470153089727e+01°)
1.14287833478977e+03	(1.30647760602996e+01dB,-1.32790395628846e+01°)
1.14551294144553e+03	(1.30653776984855e+01dB,-1.33111479933724e+01°)
1.14815362149688e+03	(1.30659818618665e+01dB,-1.33433408666628e+01°)
1.15080038894443e+03	(1.30665885596501e+01dB,-1.33756184500989e+01°)
1.15345325782109e+03	(1.30671978010624e+01dB,-1.34079810121466e+01°)
1.15611224219210e+03	(1.30678095953471e+01dB,-1.34404288224005e+01°)
1.15877735615512e+03	(1.30684239517661e+01dB,-1.34729621515901e+01°)
1.16144861384034e+03	(1.30690408795989e+01dB,-1.35055812715857e+01°)
1.16412602941049e+03	(1.30696603881426e+01dB,-1.35382864554052e+01°)
1.16680961706096e+03	(1.30702824867116e+01dB,-1.35710779772196e+01°)
1.16949939101987e+03	(1.30709071846375e+01dB,-1.36039561123599e+01°)
1.17219536554813e+03	(1.30715344912691e+01dB,-1.36369211373230e+01°)
1.17489755493953e+03	(1.30721644159716e+01dB,-1.36699733297784e+01°)
1.17760597352080e+03	(1.30727969681273e+01dB,-1.37031129685742e+01°)
1.18032063565173e+03	(1.30734321571347e+01dB,-1.37363403337438e+01°)
1.18304155572516e+03	(1.30740699924084e+01dB,-1.37696557065125e+01°)
1.18576874816716e+03	(1.30747104833793e+01dB,-1.38030593693036e+01°)
1.18850222743701e+03	(1.30753536394940e+01dB,-1.38365516057452e+01°)
1.19124200802737e+03	(1.30759994702146e+01dB,-1.38701327006771e+01°)
1.19398810446427e+03	(1.30766479850189e+01dB,-1.39038029401567e+01°)
1.19674053130724e+03	(1.30772991933996e+01dB,-1.39375626114664e+01°)
1.19949930314937e+03	(1.30779531048645e+01dB,-1.39714120031198e+01°)
1.20226443461741e+03	(1.30786097289361e+01dB,-1.40053514048688e+01°)
1.20503594037179e+03	(1.30792690751514e+01dB,-1.40393811077102e+01°)
1.20781383510678e+03	(1.30799311530617e+01dB,-1.40735014038927e+01°)
1.21059813355048e+03	(1.30805959722323e+01dB,-1.41077125869237e+01°)
1.21338885046497e+03	(1.30812635422423e+01dB,-1.41420149515760e+01°)
1.21618600064636e+03	(1.30819338726843e+01dB,-1.41764087938952e+01°)
1.21898959892486e+03	(1.30826069731643e+01dB,-1.42108944112066e+01°)
1.22179966016487e+03	(1.30832828533013e+01dB,-1.42454721021218e+01°)
1.22461619926504e+03	(1.30839615227270e+01dB,-1.42801421665465e+01°)
1.22743923115840e+03	(1.30846429910855e+01dB,-1.43149049056872e+01°)
1.23026877081238e+03	(1.30853272680335e+01dB,-1.43497606220582e+01°)
1.23310483322890e+03	(1.30860143632393e+01dB,-1.43847096194897e+01°)
1.23594743344450e+03	(1.30867042863831e+01dB,-1.44197522031338e+01°)
1.23879658653036e+03	(1.30873970471564e+01dB,-1.44548886794730e+01°)
1.24165230759241e+03	(1.30880926552618e+01dB,-1.44901193563270e+01°)
1.24451461177138e+03	(1.30887911204128e+01dB,-1.45254445428598e+01°)
1.24738351424294e+03	(1.30894924523333e+01dB,-1.45608645495881e+01°)
1.25025903021771e+03	(1.30901966607575e+01dB,-1.45963796883877e+01°)
1.25314117494141e+03	(1.30909037554295e+01dB,-1.46319902725020e+01°)
1.25602996369487e+03	(1.30916137461028e+01dB,-1.46676966165488e+01°)
1.25892541179416e+03	(1.30923266425405e+01dB,-1.47034990365285e+01°)
1.26182753459066e+03	(1.30930424545143e+01dB,-1.47393978498316e+01°)
1.26473634747115e+03	(1.30937611918048e+01dB,-1.47753933752463e+01°)
1.26765186585784e+03	(1.30944828642007e+01dB,-1.48114859329666e+01°)
1.27057410520854e+03	(1.30952074814986e+01dB,-1.48476758445996e+01°)
1.27350308101666e+03	(1.30959350535027e+01dB,-1.48839634331740e+01°)
1.27643880881134e+03	(1.30966655900247e+01dB,-1.49203490231476e+01°)
1.27938130415752e+03	(1.30973991008827e+01dB,-1.49568329404153e+01°)
1.28233058265601e+03	(1.30981355959017e+01dB,-1.49934155123174e+01°)
1.28528665994361e+03	(1.30988750849127e+01dB,-1.50300970676473e+01°)
1.28824955169313e+03	(1.30996175777523e+01dB,-1.50668779366599e+01°)
1.29121927361353e+03	(1.31003630842628e+01dB,-1.51037584510795e+01°)
1.29419584144998e+03	(1.31011116142911e+01dB,-1.51407389441085e+01°)
1.29717927098395e+03	(1.31018631776891e+01dB,-1.51778197504350e+01°)
1.30016957803328e+03	(1.31026177843126e+01dB,-1.52150012062415e+01°)
1.30316677845229e+03	(1.31033754440212e+01dB,-1.52522836492134e+01°)
1.30617088813183e+03	(1.31041361666781e+01dB,-1.52896674185472e+01°)
1.30918192299940e+03	(1.31048999621491e+01dB,-1.53271528549590e+01°)
1.31219989901920e+03	(1.31056668403027e+01dB,-1.53647403006927e+01°)
1.31522483219223e+03	(1.31064368110097e+01dB,-1.54024300995295e+01°)
1.31825673855640e+03	(1.31072098841421e+01dB,-1.54402225967954e+01°)
1.32129563418657e+03	(1.31079860695734e+01dB,-1.54781181393706e+01°)
1.32434153519466e+03	(1.31087653771778e+01dB,-1.55161170756981e+01°)
1.32739445772973e+03	(1.31095478168298e+01dB,-1.55542197557923e+01°)
1.33045441797808e+03	(1.31103333984035e+01dB,-1.55924265312480e+01°)
1.33352143216332e+03	(1.31111221317726e+01dB,-1.56307377552491e+01°)
1.33659551654643e+03	(1.31119140268096e+01dB,-1.56691537825778e+01°)
1.33967668742593e+03	(1.31127090933852e+01dB,-1.57076749696233e+01°)
1.34276496113786e+03	(1.31135073413681e+01dB,-1.57463016743914e+01°)
1.34586035405594e+03	(1.31143087806244e+01dB,-1.57850342565126e+01°)
1.34896288259164e+03	(1.31151134210169e+01dB,-1.58238730772524e+01°)
1.35207256319427e+03	(1.31159212724048e+01dB,-1.58628184995198e+01°)
1.35518941235103e+03	(1.31167323446432e+01dB,-1.59018708878765e+01°)
1.35831344658715e+03	(1.31175466475822e+01dB,-1.59410306085469e+01°)
1.36144468246594e+03	(1.31183641910669e+01dB,-1.59802980294268e+01°)
1.36458313658892e+03	(1.31191849849364e+01dB,-1.60196735200930e+01°)
1.36772882559584e+03	(1.31200090390234e+01dB,-1.60591574518131e+01°)
1.37088176616484e+03	(1.31208363631537e+01dB,-1.60987501975548e+01°)
1.37404197501251e+03	(1.31216669671455e+01dB,-1.61384521319953e+01°)
1.37720946889394e+03	(1.31225008608089e+01dB,-1.61782636315314e+01°)
1.38038426460288e+03	(1.31233380539452e+01dB,-1.62181850742889e+01°)
1.38356637897177e+03	(1.31241785563465e+01dB,-1.62582168401326e+01°)
1.38675582887188e+03	(1.31250223777947e+01dB,-1.62983593106760e+01°)
1.38995263121334e+03	(1.31258695280616e+01dB,-1.63386128692911e+01°)
1.39315680294529e+03	(1.31267200169072e+01dB,-1.63789779011185e+01°)
1.39636836105593e+03	(1.31275738540802e+01dB,-1.64194547930775e+01°)
1.39958732257261e+03	(1.31284310493164e+01dB,-1.64600439338760e+01°)
1.40281370456195e+03	(1.31292916123388e+01dB,-1.65007457140206e+01°)
1.40604752412990e+03	(1.31301555528564e+01dB,-1.65415605258269e+01°)
1.40928879842186e+03	(1.31310228805637e+01dB,-1.65824887634299e+01°)
1.41253754462274e+03	(1.31318936051401e+01dB,-1.66235308227938e+01°)
1.41579377995707e+03	(1.31327677362489e+01dB,-1.66646871017231e+01°)
1.41905752168908e+03	(1.31336452835373e+01dB,-1.67059579998722e+01°)
1.42232878712281e+03	(1.31345262566347e+01dB,-1.67473439187568e+01°)
1.42560759360218e+03	(1.31354106651527e+01dB,-1.67888452617635e+01°)
1.42889395851109e+03	(1.31362985186842e+01dB,-1.68304624341613e+01°)
1.43218789927353e+03	(1.31371898268024e+01dB,-1.68721958431117e+01°)
1.43548943335364e+03	(1.31380845990604e+01dB,-1.69140458976795e+01°)
1.43879857825583e+03	(1.31389828449901e+01dB,-1.69560130088441e+01°)
1.44211535152486e+03	(1.31398845741016e+01dB,-1.69980975895096e+01°)
1.44543977074592e+03	(1.31407897958827e+01dB,-1.70403000545162e+01°)
1.44877185354475e+03	(1.31416985197973e+01dB,-1.70826208206513e+01°)
1.45211161758773e+03	(1.31426107552853e+01dB,-1.71250603066603e+01°)
1.45545908058195e+03	(1.31435265117616e+01dB,-1.71676189332576e+01°)
1.45881426027534e+03	(1.31444457986152e+01dB,-1.72102971231381e+01°)
1.46217717445671e+03	(1.31453686252082e+01dB,-1.72530953009884e+01°)
1.46554784095590e+03	(1.31462950008752e+01dB,-1.72960138934980e+01°)
1.46892627764385e+03	(1.31472249349224e+01dB,-1.73390533293705e+01°)
1.47231250243271e+03	(1.31481584366265e+01dB,-1.73822140393356e+01°)
1.47570653327588e+03	(1.31490955152340e+01dB,-1.74254964561600e+01°)
1.47910838816819e+03	(1.31500361799604e+01dB,-1.74689010146595e+01°)
1.48251808514594e+03	(1.31509804399887e+01dB,-1.75124281517099e+01°)
1.48593564228699e+03	(1.31519283044694e+01dB,-1.75560783062599e+01°)
1.48936107771090e+03	(1.31528797825186e+01dB,-1.75998519193415e+01°)
1.49279440957898e+03	(1.31538348832177e+01dB,-1.76437494340829e+01°)
1.49623565609442e+03	(1.31547936156122e+01dB,-1.76877712957198e+01°)
1.49968483550236e+03	(1.31557559887106e+01dB,-1.77319179516078e+01°)
1.50314196609001e+03	(1.31567220114835e+01dB,-1.77761898512341e+01°)
1.50660706618673e+03	(1.31576916928628e+01dB,-1.78205874462297e+01°)
1.51008015416413e+03	(1.31586650417403e+01dB,-1.78651111903818e+01°)
1.51356124843619e+03	(1.31596420669668e+01dB,-1.79097615396456e+01°)
1.51705036745932e+03	(1.31606227773513e+01dB,-1.79545389521572e+01°)
1.52054752973248e+03	(1.31616071816594e+01dB,-1.79994438882454e+01°)
1.52405275379728e+03	(1.31625952886128e+01dB,-1.80444768104446e+01°)
1.52756605823806e+03	(1.31635871068878e+01dB,-1.80896381835070e+01°)
1.53108746168201e+03	(1.31645826451142e+01dB,-1.81349284744154e+01°)
1.53461698279928e+03	(1.31655819118745e+01dB,-1.81803481523959e+01°)
1.53815464030302e+03	(1.31665849157023e+01dB,-1.82258976889305e+01°)
1.54170045294954e+03	(1.31675916650817e+01dB,-1.82715775577697e+01°)
1.54525443953840e+03	(1.31686021684455e+01dB,-1.83173882349459e+01°)
1.54881661891247e+03	(1.31696164341745e+01dB,-1.83633301987858e+01°)
1.55238700995807e+03	(1.31706344705960e+01dB,-1.84094039299240e+01°)
1.55596563160506e+03	(1.31716562859827e+01dB,-1.84556099113153e+01°)
1.55955250282694e+03	(1.31726818885514e+01dB,-1.85019486282487e+01°)
1.56314764264094e+03	(1.31737112864621e+01dB,-1.85484205683599e+01°)
1.56675107010813e+03	(1.31747444878160e+01dB,-1.85950262216452e+01°)
1.57036280433354e+03	(1.31757815006549e+01dB,-1.86417660804745e+01°)
1.57398286446620e+03	(1.31768223329595e+01dB,-1.86886406396046e+01°)
1.57761126969933e+03	(1.31778669926483e+01dB,-1.87356503961934e+01°)
1.58124803927037e+03	(1.31789154875761e+01dB,-1.87827958498126e+01°)
1.58489319246110e+03	(1.31799678255328e+01dB,-1.88300775024622e+01°)
1.58854674859776e+03	(1.31810240142419e+01dB,-1.88774958585833e+01°)
1.59220872705115e+03	(1.31820840613589e+01dB,-1.89250514250730e+01°)
1.59587914723672e+03	(1.31831479744706e+01dB,-1.89727447112974e+01°)
1.59955802861465e+03	(1.31842157610927e+01dB,-1.90205762291058e+01°)
1.60324539069002e+03	(1.31852874286692e+01dB,-1.90685464928449e+01°)
1.60694125301286e+03	(1.31863629845706e+01dB,-1.91166560193727e+01°)
1.61064563517825e+03	(1.31874424360920e+01dB,-1.91649053280729e+01°)
1.61435855682647e+03	(1.31885257904524e+01dB,-1.92132949408688e+01°)
1.61808003764305e+03	(1.31896130547926e+01dB,-1.92618253822379e+01°)
1.62181009735891e+03	(1.31907042361738e+01dB,-1.93104971792261e+01°)
1.62554875575047e+03	(1.31917993415761e+01dB,-1.93593108614624e+01°)
1.62929603263970e+03	(1.31928983778969e+01dB,-1.94082669611732e+01°)
1.63305194789432e+03	(1.31940013519491e+01dB,-1.94573660131969e+01°)
1.63681652142779e+03	(1.31951082704598e+01dB,-1.95066085549989e+01°)
1.64058977319952e+03	(1.31962191400684e+01dB,-1.95559951266861e+01°)
1.64437172321491e+03	(1.31973339673250e+01dB,-1.96055262710217e+01°)
1.64816239152549e+03	(1.31984527586888e+01dB,-1.96552025334402e+01°)
1.65196179822900e+03	(1.31995755205263e+01dB,-1.97050244620625e+01°)
1.65576996346951e+03	(1.32007022591094e+01dB,-1.97549926077107e+01°)
1.65958690743754e+03	(1.32018329806140e+01dB,-1.98051075239235e+01°)
1.66341265037015e+03	(1.32029676911181e+01dB,-1.98553697669712e+01°)
1.66724721255104e+03	(1.32041063965997e+01dB,-1.99057798958710e+01°)
1.67109061431069e+03	(1.32052491029353e+01dB,-1.99563384724026e+01°)
1.67494287602642e+03	(1.32063958158982e+01dB,-2.00070460611233e+01°)
1.67880401812254e+03	(1.32075465411559e+01dB,-2.00579032293836e+01°)
1.68267406107045e+03	(1.32087012842692e+01dB,-2.01089105473431e+01°)
1.68655302538872e+03	(1.32098600506895e+01dB,-2.01600685879854e+01°)
1.69044093164324e+03	(1.32110228457571e+01dB,-2.02113779271350e+01°)
1.69433780044731e+03	(1.32121896746994e+01dB,-2.02628391434718e+01°)
1.69824365246172e+03	(1.32133605426286e+01dB,-2.03144528185478e+01°)
1.70215850839493e+03	(1.32145354545401e+01dB,-2.03662195368030e+01°)
1.70608238900310e+03	(1.32157144153099e+01dB,-2.04181398855812e+01°)
1.71001531509027e+03	(1.32168974296931e+01dB,-2.04702144551460e+01°)
1.71395730750840e+03	(1.32180845023212e+01dB,-2.05224438386973e+01°)
1.71790838715757e+03	(1.32192756377007e+01dB,-2.05748286323874e+01°)
1.72186857498598e+03	(1.32204708402103e+01dB,-2.06273694353373e+01°)
1.72583789199018e+03	(1.32216701140990e+01dB,-2.06800668496531e+01°)
1.72981635921508e+03	(1.32228734634839e+01dB,-2.07329214804425e+01°)
1.73380399775412e+03	(1.32240808923481e+01dB,-2.07859339358313e+01°)
1.73780082874935e+03	(1.32252924045380e+01dB,-2.08391048269800e+01°)
1.74180687339159e+03	(1.32265080037614e+01dB,-2.08924347681007e+01°)
1.74582215292048e+03	(1.32277276935853e+01dB,-2.09459243764734e+01°)
1.74984668862463e+03	(1.32289514774330e+01dB,-2.09995742724635e+01°)
1.75388050184174e+03	(1.32301793585823e+01dB,-2.10533850795381e+01°)
1.75792361395867e+03	(1.32314113401626e+01dB,-2.11073574242831e+01°)
1.76197604641161e+03	(1.32326474251530e+01dB,-2.11614919364207e+01°)
1.76603782068614e+03	(1.32338876163794e+01dB,-2.12157892488258e+01°)
1.77010895831740e+03	(1.32351319165121e+01dB,-2.12702499975439e+01°)
1.77418948089014e+03	(1.32363803280634e+01dB,-2.13248748218078e+01°)
1.77827941003890e+03	(1.32376328533850e+01dB,-2.13796643640553e+01°)
1.78237876744807e+03	(1.32388894946653e+01dB,-2.14346192699465e+01°)
1.78648757485203e+03	(1.32401502539269e+01dB,-2.14897401883813e+01°)
1.79060585403527e+03	(1.32414151330240e+01dB,-2.15450277715166e+01°)
1.79473362683250e+03	(1.32426841336394e+01dB,-2.16004826747845e+01°)
1.79887091512876e+03	(1.32439572572821e+01dB,-2.16561055569097e+01°)
1.80301774085954e+03	(1.32452345052844e+01dB,-2.17118970799269e+01°)
1.80717412601090e+03	(1.32465158787994e+01dB,-2.17678579091995e+01°)
1.81134009261958e+03	(1.32478013787975e+01dB,-2.18239887134365e+01°)
1.81551566277311e+03	(1.32490910060644e+01dB,-2.18802901647112e+01°)
1.81970085860996e+03	(1.32503847611974e+01dB,-2.19367629384786e+01°)
1.82389570231961e+03	(1.32516826446032e+01dB,-2.19934077135941e+01°)
1.82810021614272e+03	(1.32529846564943e+01dB,-2.20502251723312e+01°)
1.83231442237119e+03	(1.32542907968865e+01dB,-2.21072160003999e+01°)
1.83653834334832e+03	(1.32556010655956e+01dB,-2.21643808869650e+01°)
1.84077200146893e+03	(1.32569154622343e+01dB,-2.22217205246642e+01°)
1.84501541917945e+03	(1.32582339862092e+01dB,-2.22792356096270e+01°)
1.84926861897805e+03	(1.32595566367177e+01dB,-2.23369268414926e+01°)
1.85353162341478e+03	(1.32608834127448e+01dB,-2.23947949234289e+01°)
1.85780445509167e+03	(1.32622143130595e+01dB,-2.24528405621506e+01°)
1.86208713666284e+03	(1.32635493362123e+01dB,-2.25110644679383e+01°)
1.86637969083464e+03	(1.32648884805310e+01dB,-2.25694673546571e+01°)
1.87068214036577e+03	(1.32662317441181e+01dB,-2.26280499397752e+01°)
1.87499450806739e+03	(1.32675791248470e+01dB,-2.26868129443828e+01°)
1.87931681680324e+03	(1.32689306203587e+01dB,-2.27457570932112e+01°)
1.88364908948977e+03	(1.32702862280583e+01dB,-2.28048831146513e+01°)
1.88799134909627e+03	(1.32716459451116e+01dB,-2.28641917407729e+01°)
1.89234361864495e+03	(1.32730097684414e+01dB,-2.29236837073439e+01°)
1.89670592121112e+03	(1.32743776947240e+01dB,-2.29833597538488e+01°)
1.90107827992327e+03	(1.32757497203854e+01dB,-2.30432206235085e+01°)
1.90546071796322e+03	(1.32771258415980e+01dB,-2.31032670632994e+01°)
1.90985325856621e+03	(1.32785060542763e+01dB,-2.31634998239719e+01°)
1.91425592502106e+03	(1.32798903540739e+01dB,-2.32239196600710e+01°)
1.91866874067026e+03	(1.32812787363787e+01dB,-2.32845273299545e+01°)
1.92309172891013e+03	(1.32826711963101e+01dB,-2.33453235958128e+01°)
